Bus, BasekV, Node1, Magnitude1, Angle1, pu1, Node2, Magnitude2, Angle2, pu2, Node3, Magnitude3, Angle3, pu3, Node4, Magnitude4, Angle4, pu4
"SOURCEBUS", 0, 1,     230.94,    0.0,         0, 2,     230.94, -120.0,         0, 3,     230.94,  120.0,         0, 4,     1.3135,   -6.3,         0
"B291", 0, 1,     212.99,   -3.7,         0, 2,    226.068, -120.8,         0, 3,    218.034,  118.5,         0, 4,    4.82253,   -5.8,         0
"B2515", 0, 1,     212.99,   -3.7,         0, 2,    226.068, -120.8,         0, 3,    218.034,  118.5,         0, 4,    4.82253,   -5.8,         0
"B1328", 0, 1,    229.911,   -0.2,         0, 2,     230.01, -120.2,         0, 3,    230.034,  119.8,         0, 4,    1.34584,   -6.9,         0
"B1705", 0, 1,    229.907,   -0.2,         0, 2,    230.006, -120.2,         0, 3,    230.029,  119.8,         0, 4,    1.34256,   -6.9,         0
"B3296", 0, 1,    227.258,   -0.6,         0, 2,    226.713, -120.8,         0, 3,    227.902,  119.4,         0, 4,    1.94172,  -70.4,         0
"B1132", 0, 1,    227.259,   -0.6,         0, 2,    226.948, -120.8,         0, 3,    227.902,  119.4,         0, 4,    1.78641,  -64.9,         0
"B1194", 0, 1,    214.714,   -3.2,         0, 2,    226.838, -120.7,         0, 3,    220.469,  118.9,         0, 4,    5.56026,   -5.6,         0
"B680", 0, 1,    214.033,   -3.2,         0, 2,    226.858, -120.7,         0, 3,    220.469,  118.9,         0, 4,    6.21404,   -5.0,         0
"B3391", 0, 1,     228.62,   -0.4,         0, 2,    228.492, -120.5,         0, 3,    228.233,  119.5,         0, 4,   0.622394,  -30.9,         0
"B2142", 0, 1,     228.62,   -0.4,         0, 2,    228.492, -120.5,         0, 3,    228.233,  119.5,         0, 4,   0.622392,  -30.9,         0
"B177", 0, 1,    214.947,   -3.1,         0, 2,    225.884, -120.8,         0, 3,    220.533,  118.9,         0, 4,    5.20134,  -16.8,         0
"B1512", 0, 1,    214.949,   -3.1,         0, 2,    226.147, -120.8,         0, 3,    220.536,  118.9,         0, 4,    5.26304,  -13.9,         0
"B2038", 0, 1,    225.554,   -0.8,         0, 2,    225.423, -121.1,         0, 3,    227.152,  119.4,         0, 4,     2.4732,  -68.0,         0
"B2820", 0, 1,    225.198,   -0.9,         0, 2,    225.057, -121.2,         0, 3,    226.826,  119.4,         0, 4,    2.50926,  -72.0,         0
"B3284", 0, 1,     228.62,   -0.4,         0, 2,    228.492, -120.5,         0, 3,    228.233,  119.5,         0, 4,   0.622479,  -30.9,         0
"B3019", 0, 1,     228.62,   -0.4,         0, 2,    228.492, -120.5,         0, 3,    228.233,  119.5,         0, 4,   0.622446,  -30.9,         0
"B3375", 0, 1,    211.421,   -3.9,         0, 2,    226.702, -120.7,         0, 3,    216.703,  118.4,         0, 4,    5.51268,   10.4,         0
"B170", 0, 1,    211.425,   -3.9,         0, 2,    226.702, -120.7,         0, 3,    217.106,  118.4,         0, 4,    5.69687,    6.8,         0
"B2457", 0, 1,     212.99,   -3.7,         0, 2,    225.715, -120.8,         0, 3,     218.03,  118.5,         0, 4,    4.69659,   -9.9,         0
"B2679", 0, 1,    224.215,   -1.0,         0, 2,     224.56, -121.2,         0, 3,    226.289,  119.3,         0, 4,    2.50371,  -69.3,         0
"B1408", 0, 1,    224.488,   -1.0,         0, 2,    224.556, -121.2,         0, 3,    226.285,  119.3,         0, 4,    2.44265,  -75.3,         0
"B3136", 0, 1,    224.186,   -1.0,         0, 2,    223.671, -121.4,         0, 3,     225.98,  119.3,         0, 4,    3.06542,  -85.4,         0
"B1762", 0, 1,    224.121,   -1.0,         0, 2,    223.674, -121.4,         0, 3,    225.938,  119.3,         0, 4,    3.00478,  -85.4,         0
"B1121", 0, 1,    213.112,   -3.3,         0, 2,    225.906, -120.8,         0, 3,    220.423,  118.9,         0, 4,    6.86855,  -13.9,         0
"B2683", 0, 1,    213.363,   -3.3,         0, 2,    225.898, -120.8,         0, 3,    220.423,  118.9,         0, 4,    6.63668,  -14.4,         0
"B2571", 0, 1,    229.443,   -0.3,         0, 2,    229.242, -120.4,         0, 3,    228.283,  119.5,         0, 4,   0.259234,   63.2,         0
"B3036", 0, 1,    229.443,   -0.3,         0, 2,    229.242, -120.4,         0, 3,    228.283,  119.5,         0, 4,   0.259234,   63.2,         0
"B819", 0, 1,    212.371,   -3.6,         0, 2,    225.918, -120.8,         0, 3,    218.735,  118.6,         0, 4,    6.05686,  -11.3,         0
"B2153", 0, 1,    212.616,   -3.6,         0, 2,    225.911, -120.8,         0, 3,    218.735,  118.6,         0, 4,    5.82544,  -11.8,         0
"B2849", 0, 1,     229.45,   -0.3,         0, 2,    229.251, -120.4,         0, 3,    228.928,  119.5,         0, 4,   0.563479,  -32.5,         0
"B3114", 0, 1,    216.921,   -2.6,         0, 2,    226.928, -120.7,         0, 3,     221.76,  119.0,         0, 4,    5.06513,   -7.8,         0
"B2117", 0, 1,    215.066,   -3.0,         0, 2,    226.627, -120.7,         0, 3,     220.31,  118.9,         0, 4,    5.36386,   -5.8,         0
"B2861", 0, 1,    229.311,   -0.4,         0, 2,    229.001, -120.4,         0, 3,    228.649,  119.5,         0, 4,   0.498182,  -57.4,         0
"B3287", 0, 1,    229.303,   -0.4,         0, 2,    228.993, -120.4,         0, 3,    228.028,  119.4,         0, 4,   0.124211,  128.1,         0
"B3169", 0, 1,    216.581,   -2.6,         0, 2,    226.629, -120.7,         0, 3,    221.757,  119.0,         0, 4,    5.28196,  -10.5,         0
"B825", 0, 1,    212.616,   -3.6,         0, 2,    225.911, -120.8,         0, 3,    218.735,  118.6,         0, 4,    5.82544,  -11.8,         0
"B602", 0, 1,     228.62,   -0.4,         0, 2,    228.492, -120.5,         0, 3,    228.233,  119.5,         0, 4,   0.622421,  -30.9,         0
"B339", 0, 1,     228.62,   -0.4,         0, 2,    228.492, -120.5,         0, 3,    228.233,  119.5,         0, 4,   0.622414,  -30.9,         0
"B186", 0, 1,    214.951,   -3.1,         0, 2,    226.758, -120.8,         0, 3,    220.542,  118.9,         0, 4,    5.45696,   -7.4,         0
"B1496", 0, 1,    224.723,   -0.9,         0, 2,    224.309, -121.3,         0, 3,    226.267,  119.3,         0, 4,     2.7159,  -83.5,         0
"B1528", 0, 1,    224.463,   -1.0,         0, 2,    224.039, -121.3,         0, 3,    226.123,  119.3,         0, 4,    2.83447,  -84.3,         0
"B568", 0, 1,    224.907,   -1.1,         0, 2,    225.031, -121.3,         0, 3,    227.831,  119.5,         0, 4,    3.80823,  -57.5,         0
"B3354", 0, 1,     224.91,   -1.1,         0, 2,    225.257, -121.3,         0, 3,    227.831,  119.5,         0, 4,    3.70262,  -54.4,         0
"B2323", 0, 1,    214.346,   -3.3,         0, 2,    226.743, -120.8,         0, 3,    220.193,  118.9,         0, 4,     5.8293,   -6.6,         0
"B1939", 0, 1,    214.349,   -3.3,         0, 2,    226.742, -120.8,         0, 3,    220.433,  118.9,         0, 4,    5.99597,   -8.3,         0
"B1922", 0, 1,    229.016,   -0.4,         0, 2,    228.854, -120.4,         0, 3,      227.9,  119.5,         0, 4,   0.335837,   62.0,         0
"B1895", 0, 1,    229.024,   -0.4,         0, 2,    228.862, -120.4,         0, 3,    228.578,  119.5,         0, 4,   0.599052,  -26.4,         0
"B29", 0, 1,     228.73,   -0.4,         0, 2,    228.587, -120.5,         0, 3,    228.351,  119.5,         0, 4,   0.615174,  -34.9,         0
"B2358", 0, 1,    225.953,   -0.7,         0, 2,    226.384, -120.9,         0, 3,    227.874,  119.5,         0, 4,    2.58436,  -48.2,         0
"B2890", 0, 1,    226.431,   -0.7,         0, 2,    226.375, -120.9,         0, 3,    227.869,  119.5,         0, 4,     2.3304,  -57.4,         0
"B835", 0, 1,    228.843,   -0.4,         0, 2,    228.575, -120.5,         0, 3,    228.108,  119.5,         0, 4,     0.3588,  -31.8,         0
"B2099", 0, 1,    228.846,   -0.4,         0, 2,    228.577, -120.5,         0, 3,    228.316,  119.5,         0, 4,   0.555257,  -40.6,         0
"B1516", 0, 1,    214.948,   -3.1,         0, 2,    226.758, -120.8,         0, 3,    220.284,  118.9,         0, 4,    5.28223,   -5.4,         0
"B3159", 0, 1,    227.848,   -0.6,         0, 2,    227.945, -120.7,         0, 3,    227.851,  119.3,         0, 4,   0.875034,  -41.7,         0
"B2880", 0, 1,    228.097,   -0.6,         0, 2,    227.941, -120.7,         0, 3,    227.848,  119.3,         0, 4,   0.723621,  -55.9,         0
"B3233", 0, 1,    214.932,   -3.0,         0, 2,      226.8, -120.7,         0, 3,     220.78,  118.9,         0, 4,    5.74789,   -6.6,         0
"B1829", 0, 1,     215.22,   -3.0,         0, 2,    226.792, -120.7,         0, 3,     220.78,  118.9,         0, 4,    5.47105,   -7.0,         0
"B2990", 0, 1,    213.765,   -3.2,         0, 2,    226.865, -120.7,         0, 3,    220.469,  118.9,         0, 4,    6.47219,   -4.8,         0
"B2552", 0, 1,    225.226,   -1.0,         0, 2,    225.675, -121.2,         0, 3,    227.787,  119.5,         0, 4,    3.33227,  -52.8,         0
"B1510", 0, 1,    225.226,   -1.0,         0, 2,    225.675, -121.2,         0, 3,    227.787,  119.5,         0, 4,    3.33227,  -52.8,         0
"B161", 0, 1,      224.9,   -0.9,         0, 2,    224.852, -121.2,         0, 3,    226.289,  119.3,         0, 4,    2.17407,  -76.6,         0
"B1182", 0, 1,    224.905,   -0.9,         0, 2,    224.854, -121.2,         0, 3,     226.55,  119.3,         0, 4,    2.42573,  -74.4,         0
"B1850", 0, 1,    228.049,   -0.6,         0, 2,    227.634, -120.7,         0, 3,    227.526,  119.3,         0, 4,   0.818691,  -71.8,         0
"B749", 0, 1,    228.053,   -0.6,         0, 2,    227.636, -120.7,         0, 3,    227.768,  119.3,         0, 4,      1.056,  -68.3,         0
"B806", 0, 1,    214.397,   -3.3,         0, 2,    226.781, -120.8,         0, 3,    220.479,  118.9,         0, 4,    5.97571,   -7.5,         0
"B2087", 0, 1,    214.397,   -3.3,         0, 2,    226.781, -120.8,         0, 3,    220.479,  118.9,         0, 4,    5.97571,   -7.5,         0
"B3123", 0, 1,    225.637,   -0.9,         0, 2,    225.819, -121.1,         0, 3,    227.508,  119.5,         0, 4,    2.80085,  -55.9,         0
"B1736", 0, 1,    225.643,   -0.9,         0, 2,     225.82, -121.1,         0, 3,    227.794,  119.5,         0, 4,    3.09259,  -55.9,         0
"B2031", 0, 1,     228.62,   -0.4,         0, 2,    228.492, -120.5,         0, 3,    228.233,  119.5,         0, 4,   0.622443,  -30.9,         0
"B1646", 0, 1,    228.038,   -0.6,         0, 2,     225.78, -120.8,         0, 3,    227.778,  119.3,         0, 4,    2.66363,  -99.4,         0
"B2877", 0, 1,    228.038,   -0.6,         0, 2,     225.78, -120.8,         0, 3,    227.778,  119.3,         0, 4,    2.66363,  -99.4,         0
"B764", 0, 1,     228.62,   -0.4,         0, 2,    228.492, -120.5,         0, 3,    228.233,  119.5,         0, 4,   0.622394,  -30.9,         0
"B2254", 0, 1,    229.447,   -0.3,         0, 2,    229.248, -120.4,         0, 3,    228.638,  119.5,         0, 4,   0.318763,  -11.2,         0
"B264", 0, 1,    218.421,   -2.3,         0, 2,    226.356, -120.7,         0, 3,    222.464,  119.1,         0, 4,    4.26844,  -18.1,         0
"B1230", 0, 1,    218.421,   -2.3,         0, 2,    226.356, -120.7,         0, 3,    222.464,  119.1,         0, 4,    4.26844,  -18.1,         0
"B1530", 0, 1,    225.014,   -0.9,         0, 2,    224.028, -121.2,         0, 3,    226.597,  119.3,         0, 4,    3.21033,  -85.2,         0
"B1534", 0, 1,    225.019,   -0.9,         0, 2,    224.597, -121.2,         0, 3,    226.595,  119.3,         0, 4,    2.74725,  -78.9,         0
"B411", 0, 1,    214.592,   -3.1,         0, 2,    226.798, -120.8,         0, 3,    220.747,  118.9,         0, 4,    6.07457,   -6.9,         0
"B521", 0, 1,    214.966,   -3.1,         0, 2,    226.788, -120.8,         0, 3,    220.747,  118.9,         0, 4,    5.71717,   -7.4,         0
"B2802", 0, 1,    224.319,   -1.0,         0, 2,    223.508, -121.4,         0, 3,    226.059,  119.3,         0, 4,    3.28011,  -87.6,         0
"B1531", 0, 1,    224.322,   -1.0,         0, 2,    223.764, -121.4,         0, 3,    226.058,  119.3,         0, 4,    3.06271,  -85.2,         0
"B2008", 0, 1,    213.318,   -3.6,         0, 2,    226.406, -120.8,         0, 3,    218.802,  118.6,         0, 4,    5.40164,   -7.7,         0
"B1253", 0, 1,    213.188,   -3.6,         0, 2,    226.404, -120.8,         0, 3,     218.74,  118.6,         0, 4,     5.4561,   -7.6,         0
"B470", 0, 1,    213.514,   -3.5,         0, 2,    226.474, -120.8,         0, 3,    218.904,  118.6,         0, 4,    5.27744,   -6.5,         0
"B1108", 0, 1,    224.719,   -0.9,         0, 2,    224.307, -121.3,         0, 3,    226.061,  119.3,         0, 4,    2.53031,  -85.6,         0
"B163", 0, 1,    213.186,   -3.6,         0, 2,    226.404, -120.8,         0, 3,    218.591,  118.6,         0, 4,    5.35465,   -6.5,         0
"B3225", 0, 1,     214.86,   -3.0,         0, 2,      226.8, -120.7,         0, 3,    219.521,  118.9,         0, 4,    5.03657,    4.0,         0
"B1414", 0, 1,    214.867,   -3.0,         0, 2,    226.801, -120.7,         0, 3,    220.125,  118.9,         0, 4,    5.38134,   -1.4,         0
"B2983", 0, 1,    214.348,   -3.3,         0, 2,    226.514, -120.8,         0, 3,     220.43,  118.9,         0, 4,    5.91704,  -10.4,         0
"B2326", 0, 1,    212.574,   -3.8,         0, 2,    226.631, -120.8,         0, 3,    218.185,  118.5,         0, 4,    5.28518,   -1.8,         0
"B293", 0, 1,    212.574,   -3.8,         0, 2,    226.631, -120.8,         0, 3,    218.185,  118.5,         0, 4,    5.28518,   -1.8,         0
"B1354", 0, 1,    212.398,   -3.9,         0, 2,    226.677, -120.8,         0, 3,    217.476,  118.4,         0, 4,    4.94591,    4.7,         0
"B2071", 0, 1,    212.404,   -3.9,         0, 2,    226.678, -120.8,         0, 3,    218.028,  118.5,         0, 4,    5.24999,   -0.4,         0
"B3307", 0, 1,    229.911,   -0.2,         0, 2,     230.01, -120.2,         0, 3,    230.034,  119.8,         0, 4,    1.34584,   -6.9,         0
"B2291", 0, 1,    225.641,   -0.9,         0, 2,    225.568, -121.2,         0, 3,    227.794,  119.5,         0, 4,    3.22021,  -59.9,         0
"B811", 0, 1,    215.472,   -2.9,         0, 2,    226.761, -120.7,         0, 3,    221.176,  119.0,         0, 4,    5.74376,   -8.0,         0
"B2012", 0, 1,    215.749,   -2.9,         0, 2,    226.753, -120.7,         0, 3,    221.176,  119.0,         0, 4,    5.47936,   -8.4,         0
"B2451", 0, 1,    228.364,   -0.5,         0, 2,    227.895, -120.6,         0, 3,    228.063,  119.4,         0, 4,   0.907935,  -65.8,         0
"B696", 0, 1,    228.365,   -0.5,         0, 2,    228.143, -120.6,         0, 3,    228.063,  119.4,         0, 4,   0.772207,  -51.4,         0
"B2205", 0, 1,    213.361,   -3.3,         0, 2,    225.673, -120.8,         0, 3,     220.42,  118.9,         0, 4,    6.58059,  -16.4,         0
"B137", 0, 1,    229.302,   -0.4,         0, 2,    228.991, -120.4,         0, 3,     227.88,  119.4,         0, 4,   0.271815,  125.7,         0
"B1300", 0, 1,    214.236,   -3.3,         0, 2,    226.505, -120.8,         0, 3,    219.556,  118.8,         0, 4,    5.34236,   -7.0,         0
"B2143", 0, 1,    229.302,   -0.4,         0, 2,    228.991, -120.4,         0, 3,    227.917,  119.4,         0, 4,   0.235093,  126.0,         0
"B2673", 0, 1,    224.599,   -1.0,         0, 2,    224.539, -121.2,         0, 3,    226.271,  119.3,         0, 4,    2.47181,  -77.9,         0
"B954", 0, 1,    224.599,   -1.0,         0, 2,    224.539, -121.2,         0, 3,    226.271,  119.3,         0, 4,    2.47181,  -77.9,         0
"B1950", 0, 1,    220.417,   -2.0,         0, 2,    227.481, -120.6,         0, 3,    224.052,  119.2,         0, 4,    4.09937,  -11.4,         0
"B461", 0, 1,    219.143,   -2.2,         0, 2,     227.24, -120.7,         0, 3,    223.173,  119.1,         0, 4,    4.40771,  -10.4,         0
"B2840", 0, 1,    213.988,   -3.0,         0, 2,    226.657, -120.7,         0, 3,     220.31,  118.9,         0, 4,    6.39889,   -4.8,         0
"B1274", 0, 1,    214.183,   -3.0,         0, 2,    226.652, -120.7,         0, 3,     220.31,  118.9,         0, 4,    6.21202,   -4.9,         0
"B1070", 0, 1,    229.322,   -0.4,         0, 2,    229.064, -120.4,         0, 3,    228.701,  119.5,         0, 4,   0.480344,  -49.3,         0
"B2728", 0, 1,    227.244,   -0.6,         0, 2,    226.937, -120.8,         0, 3,     226.95,  119.4,         0, 4,   0.849835,  -74.7,         0
"B1614", 0, 1,    227.249,   -0.6,         0, 2,    226.941, -120.8,         0, 3,    227.246,  119.4,         0, 4,    1.13656,  -69.9,         0
"B52", 0, 1,    225.633,   -0.9,         0, 2,     224.87, -121.2,         0, 3,    227.797,  119.5,         0, 4,    3.63567,  -69.3,         0
"B1185", 0, 1,    214.546,   -3.1,         0, 2,      226.8, -120.8,         0, 3,    220.031,  118.9,         0, 4,    5.64218,   -1.7,         0
"B3161", 0, 1,    214.551,   -3.1,         0, 2,    226.799, -120.8,         0, 3,    220.361,  118.9,         0, 4,    5.85182,   -4.2,         0
"B206", 0, 1,    228.726,   -0.4,         0, 2,    228.477, -120.5,         0, 3,    228.222,  119.5,         0, 4,    0.56821,  -40.9,         0
"B2271", 0, 1,     224.91,   -1.1,         0, 2,    225.257, -121.3,         0, 3,    227.831,  119.5,         0, 4,    3.70262,  -54.4,         0
"B82", 0, 1,    224.724,   -1.1,         0, 2,    225.622, -121.3,         0, 3,    227.823,  119.5,         0, 4,    3.64699,  -46.9,         0
"B1431", 0, 1,    224.991,   -1.1,         0, 2,    225.616, -121.3,         0, 3,     227.82,  119.5,         0, 4,    3.49056,  -50.3,         0
"B3083", 0, 1,    212.615,   -3.6,         0, 2,    225.694, -120.9,         0, 3,    218.732,  118.6,         0, 4,    5.76358,  -13.9,         0
"B2504", 0, 1,    224.322,   -1.0,         0, 2,    223.764, -121.4,         0, 3,    226.058,  119.3,         0, 4,    3.06271,  -85.2,         0
"B1476", 0, 1,    225.019,   -0.9,         0, 2,    224.597, -121.2,         0, 3,    226.595,  119.3,         0, 4,    2.74725,  -78.9,         0
"B1594", 0, 1,    227.979,   -0.6,         0, 2,    227.902, -120.6,         0, 3,    227.011,  119.2,         0, 4,   0.193643,  158.3,         0
"B506", 0, 1,    227.987,   -0.6,         0, 2,     227.91, -120.6,         0, 3,    227.624,  119.2,         0, 4,    0.46911,  -70.2,         0
"B1094", 0, 1,    224.895,   -1.0,         0, 2,    224.793, -121.2,         0, 3,    227.791,  119.5,         0, 4,    3.91052,  -61.0,         0
"B2149", 0, 1,    224.898,   -1.0,         0, 2,    225.053, -121.2,         0, 3,    227.791,  119.5,         0, 4,    3.77576,  -57.6,         0
"B2826", 0, 1,    228.364,   -0.5,         0, 2,    227.894, -120.6,         0, 3,    228.063,  119.4,         0, 4,   0.908518,  -65.8,         0
"B903", 0, 1,    226.431,   -0.7,         0, 2,    226.375, -120.9,         0, 3,    227.869,  119.5,         0, 4,     2.3304,  -57.4,         0
"B2176", 0, 1,    214.572,   -3.0,         0, 2,    226.808, -120.7,         0, 3,    220.125,  118.9,         0, 4,    5.66757,   -1.4,         0
"B44", 0, 1,    220.417,   -2.0,         0, 2,    227.481, -120.6,         0, 3,    224.052,  119.2,         0, 4,    4.09937,  -11.4,         0
"B2317", 0, 1,    229.597,   -0.3,         0, 2,    229.518, -120.3,         0, 3,    229.327,  119.6,         0, 4,   0.880487,  -15.3,         0
"B1813", 0, 1,     229.44,   -0.3,         0, 2,    229.239, -120.4,         0, 3,    228.008,  119.5,         0, 4,   0.461295,   94.6,         0
"B1859", 0, 1,    215.748,   -2.9,         0, 2,    226.506, -120.7,         0, 3,    221.173,  119.0,         0, 4,    5.39725,  -11.0,         0
"B468", 0, 1,    230.927,    0.0,         0, 2,    230.935, -120.0,         0, 3,     230.93,  120.0,         0, 4,    1.31353,   -6.5,         0
